
T0460 000:294 SEGGER J-Link V4.96d Log File (0001ms, 0266ms total)
T0460 000:294 DLL Compiled: Jan 29 2015 11:45:37 (0001ms, 0266ms total)
T0460 000:294 Logging started @ 2018-05-09 19:07 (0001ms, 0266ms total)
T0460 000:295 JLINK_SetWarnOutHandler(...) (0000ms, 0266ms total)
T0460 000:295 JLINK_OpenEx(...)
Firmware: J-Link ARM V8 compiled Nov 28 2014 13:44:46
Hardware: V8.00
S/N: 788594195
Feature(s): RDI,FlashDL,FlashBP,JFlash,GDB  returns O.K. (0261ms, 0527ms total)
T0460 000:556 JLINK_SetErrorOutHandler(...) (0000ms, 0527ms total)
T0460 000:556 JLINK_ExecCommand("ProjectFile = "E:\20180401\wangpeng\1Ð¾Æ¬¿â\MDK5\¿ØÖÆÏÔÊ¾µÆ\¹øÂ¯5.9\JLinkSettings.ini"", ...)Device "UNSPECIFIED" selected.  returns 0x00 (0002ms, 0529ms total)
T0460 000:558 JLINK_ExecCommand("Device = STM32F103TB", ...)Device "UNSPECIFIED" selected.  returns 0x00 (0001ms, 0530ms total)
T0460 000:559 JLINK_ExecCommand("DisableConnectionTimeout", ...)  returns 0x01 (0000ms, 0530ms total)
T0460 000:559 JLINK_GetHardwareVersion()  returns 0x13880 (0000ms, 0530ms total)
T0460 000:559 JLINK_GetDLLVersion()  returns 49604 (0000ms, 0530ms total)
T0460 000:559 JLINK_GetFirmwareString(...) (0000ms, 0530ms total)
T0460 000:559 JLINK_GetDLLVersion()  returns 49604 (0000ms, 0530ms total)
T0460 000:559 JLINK_GetCompileDateTime() (0000ms, 0530ms total)
T0460 000:559 JLINK_GetFirmwareString(...) (0000ms, 0530ms total)
T0460 000:559 JLINK_GetHardwareVersion()  returns 0x13880 (0000ms, 0530ms total)
T0460 000:559 JLINK_TIF_Select(JLINKARM_TIF_SWD)  returns 0x00 (0002ms, 0532ms total)
T0460 000:561 JLINK_SetSpeed(1000) (0000ms, 0532ms total)
T0460 000:561 JLINK_GetId() >0x108 TIF>Found SWD-DP with ID 0x1BA01477 >0x0D TIF> >0x21 TIF> >0x0D TIF> >0x28 TIF> >0x0D TIF> >0x28 TIF> >0x0D TIF> >0x21 TIF> >0x0D TIF> >0x28 TIF> >0x0D TIF> >0x21 TIF> >0x0D TIF> >0x21 TIF> >0x0D TIF> >0x21 TIF> >0x0D TIF> >0x21 TIF> >0x0D TIF> >0x28 TIF> >0x0D TIF> >0x28 TIF> >0x0D TIF> >0x21 TIF> >0x0D TIF> >0x28 TIF> >0x0D TIF> >0x28 TIF> >0x0D TIF> >0x28 TIF> >0x0D TIF> >0x21 TIF> >0x0D TIF> >0x21 TIF> >0x0D TIF> >0x28 TIF> >0x0D TIF> >0x21 TIF> >0x0D TIF>
 >0x21 TIF>Found Cortex-M3 r1p1, Little endian. -- CPU_WriteMem(4 bytes @ 0xE0002000) -- CPU_ReadMem(4 bytes @ 0xE000EDF0) -- CPU_ReadMem(4 bytes @ 0xE0002000)FPUnit: 6 code (BP) slots and 2 literal slots -- CPU_ReadMem(4 bytes @ 0xE000EDFC) -- CPU_ReadMem(4 bytes @ 0xE0001000) -- CPU_WriteMem(4 bytes @ 0xE0001000) -- CPU_ReadMem(4 bytes @ 0xE000ED88) -- CPU_WriteMem(4 bytes @ 0xE000ED88) -- CPU_ReadMem(4 bytes @ 0xE000ED88) -- CPU_WriteMem(4 bytes @ 0xE000ED88) -- CPU_ReadMem(4 bytes @ 0xE00FF010)
TPIU fitted. -- CPU_ReadMem(4 bytes @ 0xE00FF014) -- CPU_ReadMem(4 bytes @ 0xE00FF018) >0x0D TIF> >0x21 TIF>  returns 0x1BA01477 (0036ms, 0568ms total)
T0460 000:597 JLINK_GetDLLVersion()  returns 49604 (0000ms, 0568ms total)
T0460 000:597 JLINK_CORE_GetFound()  returns 0x30000FF (0000ms, 0568ms total)
T0460 000:597 JLINK_GetDebugInfo(0x100) -- Value=0xE00FF003  returns 0x00 (0000ms, 0568ms total)
T0460 000:597 JLINK_ReadMem (0xE00FF000, 0x0020 Bytes, ...) -- CPU is running -- CPU_ReadMem(32 bytes @ 0xE00FF000) - Data: 03 F0 F0 FF 03 20 F0 FF 03 30 F0 FF 03 10 F0 FF ...  returns 0x00 (0001ms, 0569ms total)
T0460 000:598 JLINK_ReadMem (0xE000EFF0, 0x0010 Bytes, ...) -- CPU is running -- CPU_ReadMem(16 bytes @ 0xE000EFF0) - Data: 0D 00 00 00 E0 00 00 00 05 00 00 00 B1 00 00 00  returns 0x00 (0001ms, 0570ms total)
T0460 000:599 JLINK_ReadMem (0xE000EFD0, 0x0020 Bytes, ...) -- CPU is running -- CPU_ReadMem(32 bytes @ 0xE000EFD0) - Data: 04 00 00 00 00 00 00 00 00 00 00 00 00 00 00 00 ...  returns 0x00 (0001ms, 0571ms total)
T0460 000:600 JLINK_ReadMem (0xE0001FF0, 0x0010 Bytes, ...) -- CPU is running -- CPU_ReadMem(16 bytes @ 0xE0001FF0) - Data: 0D 00 00 00 E0 00 00 00 05 00 00 00 B1 00 00 00  returns 0x00 (0001ms, 0572ms total)
T0460 000:601 JLINK_ReadMem (0xE0001FD0, 0x0020 Bytes, ...) -- CPU is running -- CPU_ReadMem(32 bytes @ 0xE0001FD0) - Data: 04 00 00 00 00 00 00 00 00 00 00 00 00 00 00 00 ...  returns 0x00 (0002ms, 0574ms total)
T0460 000:603 JLINK_ReadMem (0xE0002FF0, 0x0010 Bytes, ...) -- CPU is running -- CPU_ReadMem(16 bytes @ 0xE0002FF0) - Data: 0D 00 00 00 E0 00 00 00 05 00 00 00 B1 00 00 00  returns 0x00 (0001ms, 0575ms total)
T0460 000:604 JLINK_ReadMem (0xE0002FD0, 0x0020 Bytes, ...) -- CPU is running -- CPU_ReadMem(32 bytes @ 0xE0002FD0) - Data: 04 00 00 00 00 00 00 00 00 00 00 00 00 00 00 00 ...  returns 0x00 (0001ms, 0576ms total)
T0460 000:605 JLINK_ReadMem (0xE0000FF0, 0x0010 Bytes, ...) -- CPU is running -- CPU_ReadMem(16 bytes @ 0xE0000FF0) - Data: 0D 00 00 00 E0 00 00 00 05 00 00 00 B1 00 00 00  returns 0x00 (0001ms, 0577ms total)
T0460 000:606 JLINK_ReadMem (0xE0000FD0, 0x0020 Bytes, ...) -- CPU is running -- CPU_ReadMem(32 bytes @ 0xE0000FD0) - Data: 04 00 00 00 00 00 00 00 00 00 00 00 00 00 00 00 ...  returns 0x00 (0002ms, 0579ms total)
T0460 000:608 JLINK_ReadMem (0xE0040FF0, 0x0010 Bytes, ...) -- CPU is running -- CPU_ReadMem(16 bytes @ 0xE0040FF0) - Data: 0D 00 00 00 90 00 00 00 05 00 00 00 B1 00 00 00  returns 0x00 (0001ms, 0580ms total)
T0460 000:609 JLINK_ReadMem (0xE0040FD0, 0x0020 Bytes, ...) -- CPU is running -- CPU_ReadMem(32 bytes @ 0xE0040FD0) - Data: 04 00 00 00 00 00 00 00 00 00 00 00 00 00 00 00 ...  returns 0x00 (0001ms, 0581ms total)
T0460 000:610 JLINK_ReadMemU32(0xE000ED00, 0x0001 Items, ...) -- CPU is running -- CPU_ReadMem(4 bytes @ 0xE000ED00) - Data: 31 C2 1F 41  returns 0x01 (0001ms, 0582ms total)
T0460 000:611 JLINK_SetResetType(JLINKARM_RESET_TYPE_NORMAL)  returns JLINKARM_RESET_TYPE_NORMAL (0000ms, 0582ms total)
T0460 000:611 JLINK_Reset() -- CPU is running -- CPU_WriteMem(4 bytes @ 0xE000EDF0) -- CPU is running -- CPU_WriteMem(4 bytes @ 0xE000EDFC) >0x35 TIF> -- CPU is running -- CPU_WriteMem(4 bytes @ 0xE000ED0C) -- CPU is running -- CPU_ReadMem(4 bytes @ 0xE000EDF0) -- CPU is running -- CPU_ReadMem(4 bytes @ 0xE000EDF0) -- CPU is running -- CPU_WriteMem(4 bytes @ 0xE000EDF0) -- CPU is running -- CPU_WriteMem(4 bytes @ 0xE000EDFC) -- CPU is running -- CPU_ReadMem(4 bytes @ 0xE000EDF0)
 -- CPU_WriteMem(4 bytes @ 0xE0002000) -- CPU_ReadMem(4 bytes @ 0xE000EDFC) -- CPU_ReadMem(4 bytes @ 0xE0001000) (0022ms, 0604ms total)
T0460 000:633 JLINK_ReadReg(R15 (PC))  returns 0x08000144 (0000ms, 0604ms total)
T0460 000:633 JLINK_ReadReg(XPSR)  returns 0x01000000 (0000ms, 0604ms total)
T0460 000:633 JLINK_Halt()  returns 0x00 (0000ms, 0604ms total)
T0460 000:633 JLINK_IsHalted()  returns TRUE (0000ms, 0604ms total)
T0460 000:633 JLINK_ReadMemU32(0xE000EDF0, 0x0001 Items, ...) -- CPU_ReadMem(4 bytes @ 0xE000EDF0) - Data: 03 00 03 00  returns 0x01 (0001ms, 0605ms total)
T0460 000:634 JLINK_WriteU32(0xE000EDF0, 0xA05F0003) -- CPU_WriteMem(4 bytes @ 0xE000EDF0)  returns 0x00 (0001ms, 0606ms total)
T0460 000:635 JLINK_WriteU32(0xE000EDFC, 0x01000000) -- CPU_WriteMem(4 bytes @ 0xE000EDFC)  returns 0x00 (0001ms, 0607ms total)
T0460 000:637 JLINK_GetHWStatus(...)  returns 0x00 (0000ms, 0607ms total)
T0460 000:637 JLINK_GetNumBPUnits(Type = 0xFFFFFF00)  returns 0x06 (0000ms, 0607ms total)
T0460 000:637 JLINK_GetNumBPUnits(Type = 0xF0)  returns 0x2000 (0000ms, 0607ms total)
T0460 000:637 JLINK_GetNumWPUnits()  returns 0x04 (0000ms, 0607ms total)
T0460 000:637 JLINK_GetSpeed()  returns 0x3E8 (0001ms, 0608ms total)
T0460 000:638 JLINK_ReadMemU32(0xE000E004, 0x0001 Items, ...) -- CPU_ReadMem(4 bytes @ 0xE000E004) - Data: 01 00 00 00  returns 0x01 (0001ms, 0609ms total)
T0460 000:639 JLINK_ReadMemU32(0xE000E004, 0x0001 Items, ...) -- CPU_ReadMem(4 bytes @ 0xE000E004) - Data: 01 00 00 00  returns 0x01 (0000ms, 0609ms total)
T0460 000:640 JLINK_WriteMem(0xE0001000, 0x001C Bytes, ...) - Data: 01 00 00 00 00 00 00 00 00 00 00 00 00 00 00 00 ... -- CPU_WriteMem(28 bytes @ 0xE0001000)  returns 0x1C (0001ms, 0610ms total)
T0460 000:641 JLINK_ReadMem (0xE0001000, 0x001C Bytes, ...) -- CPU_ReadMem(28 bytes @ 0xE0001000) - Data: 01 00 00 40 00 00 00 00 00 00 00 00 00 00 00 00 ...  returns 0x00 (0001ms, 0611ms total)
T0460 000:642 JLINK_ReadReg(R15 (PC))  returns 0x08000144 (0000ms, 0611ms total)
T0460 000:642 JLINK_ReadReg(XPSR)  returns 0x01000000 (0000ms, 0611ms total)
T0460 000:751 JLINK_SetResetType(JLINKARM_RESET_TYPE_NORMAL)  returns JLINKARM_RESET_TYPE_NORMAL (0000ms, 0611ms total)
T0460 000:751 JLINK_Reset() -- CPU_WriteMem(4 bytes @ 0xE000EDF0) -- CPU_WriteMem(4 bytes @ 0xE000EDFC) >0x35 TIF> -- CPU_WriteMem(4 bytes @ 0xE000ED0C) -- CPU_ReadMem(4 bytes @ 0xE000EDF0) -- CPU_ReadMem(4 bytes @ 0xE000EDF0) -- CPU_WriteMem(4 bytes @ 0xE000EDF0) -- CPU_WriteMem(4 bytes @ 0xE000EDFC) -- CPU is running -- CPU_ReadMem(4 bytes @ 0xE000EDF0) -- CPU_WriteMem(4 bytes @ 0xE0002000) -- CPU_ReadMem(4 bytes @ 0xE000EDFC) -- CPU_ReadMem(4 bytes @ 0xE0001000) (0025ms, 0636ms total)
T0460 000:776 JLINK_ReadReg(R15 (PC))  returns 0x08000144 (0000ms, 0636ms total)
T0460 000:776 JLINK_ReadReg(XPSR)  returns 0x01000000 (0000ms, 0636ms total)
T0460 000:776 JLINK_ReadMem (0x08000130, 0x003C Bytes, ...) -- CPU_ReadMem(60 bytes @ 0x08000130) - Data: DF F8 0C D0 00 F0 18 F8 00 48 00 47 3D 18 00 08 ...  returns 0x00 (0002ms, 0638ms total)
T0460 000:778 JLINK_ReadMem (0x0800012E, 0x0002 Bytes, ...) -- CPU_ReadMem(2 bytes @ 0x0800012E) - Data: 00 08  returns 0x00 (0001ms, 0639ms total)
T0460 000:891 JLINK_ReadMem (0x40023000, 0x0004 Bytes, ...) -- CPU_ReadMem(4 bytes @ 0x40023000) - Data: 00 00 00 00  returns 0x00 (0001ms, 0640ms total)
T0460 000:892 JLINK_ReadMem (0x40023004, 0x0004 Bytes, ...) -- CPU_ReadMem(4 bytes @ 0x40023004) - Data: 00 00 00 00  returns 0x00 (0001ms, 0641ms total)
T0460 000:916 JLINK_ReadMem (0x40010800, 0x000C Bytes, ...) -- CPU_ReadMem(12 bytes @ 0x40010800) - Data: 44 44 44 44 44 44 84 88 00 00 00 00  returns 0x00 (0001ms, 0642ms total)
T0460 000:917 JLINK_ReadMem (0x4001080C, 0x0004 Bytes, ...) -- CPU_ReadMem(4 bytes @ 0x4001080C) - Data: 00 A0 00 00  returns 0x00 (0001ms, 0643ms total)
T0460 000:918 JLINK_ReadMem (0x40010818, 0x0004 Bytes, ...) -- CPU_ReadMem(4 bytes @ 0x40010818) - Data: 00 00 00 00  returns 0x00 (0001ms, 0644ms total)
T0460 000:945 JLINK_ReadMem (0x40010C00, 0x000C Bytes, ...) -- CPU_ReadMem(12 bytes @ 0x40010C00) - Data: 44 44 48 44 44 44 44 44 00 00 00 00  returns 0x00 (0001ms, 0645ms total)
T0460 000:946 JLINK_ReadMem (0x40010C0C, 0x0004 Bytes, ...) -- CPU_ReadMem(4 bytes @ 0x40010C0C) - Data: 10 00 00 00  returns 0x00 (0001ms, 0646ms total)
T0460 000:947 JLINK_ReadMem (0x40010C18, 0x0004 Bytes, ...) -- CPU_ReadMem(4 bytes @ 0x40010C18) - Data: 00 00 00 00  returns 0x00 (0001ms, 0647ms total)
T0460 000:972 JLINK_ReadMem (0x40013800, 0x0018 Bytes, ...) -- CPU_ReadMem(24 bytes @ 0x40013800) - Data: 00 00 00 00 00 00 00 00 00 00 00 00 00 00 00 00 ...  returns 0x00 (0001ms, 0648ms total)
T0460 000:973 JLINK_ReadMem (0x40013818, 0x0004 Bytes, ...) -- CPU_ReadMem(4 bytes @ 0x40013818) - Data: 00 00 00 00  returns 0x00 (0001ms, 0649ms total)
T0460 001:493 JLINK_ReadMem (0x20000420, 0x0222 Bytes, ...) -- CPU_ReadMem(546 bytes @ 0x20000420) - Data: 00 00 00 00 00 00 00 00 00 00 00 00 00 00 00 00 ...  returns 0x00 (0010ms, 0659ms total)
T0460 001:510 JLINK_ReadMem (0x00000000, 0x0222 Bytes, ...) -- CPU_ReadMem(546 bytes @ 0x00000000) - Data: 68 06 00 20 45 01 00 08 4D 01 00 08 4F 01 00 08 ...  returns 0x00 (0009ms, 0668ms total)
T0460 001:926 JLINK_ReadMem (0x20000088, 0x0014 Bytes, ...) -- CPU_ReadMem(20 bytes @ 0x20000088) - Data: 00 00 00 00 60 3F 04 3F 00 3F 70 3F 00 3F 00 3F ...  returns 0x00 (0001ms, 0670ms total)
T0460 001:931 JLINK_ReadMem (0x20000004, 0x0001 Bytes, ...) -- CPU_ReadMem(1 bytes @ 0x20000004) - Data: 00  returns 0x00 (0002ms, 0672ms total)
T0460 001:936 JLINK_ReadMem (0x20000028, 0x0001 Bytes, ...) -- CPU_ReadMem(1 bytes @ 0x20000028) - Data: 00  returns 0x00 (0001ms, 0673ms total)
T0460 001:942 JLINK_ReadMem (0x20000029, 0x0001 Bytes, ...) -- CPU_ReadMem(1 bytes @ 0x20000029) - Data: 00  returns 0x00 (0000ms, 0673ms total)
T0460 001:947 JLINK_ReadMem (0x20000005, 0x0001 Bytes, ...) -- CPU_ReadMem(1 bytes @ 0x20000005) - Data: 00  returns 0x00 (0001ms, 0674ms total)
T0460 001:952 JLINK_ReadMem (0x20000164, 0x0020 Bytes, ...) -- CPU_ReadMem(32 bytes @ 0x20000164) - Data: 00 00 00 00 00 00 00 00 00 00 00 00 00 00 00 00 ...  returns 0x00 (0002ms, 0676ms total)
T1D0C 001:986 JLINK_SetBPEx(Addr = 0x0800183C, Type = 0xFFFFFFF2)  returns 0x00000001 (0000ms, 0676ms total)
T1D0C 001:986 JLINK_Go() -- CPU_WriteMem(4 bytes @ 0xE0002000) -- CPU_WriteMem(4 bytes @ 0xE0002008) -- CPU_WriteMem(4 bytes @ 0xE000200C) -- CPU_WriteMem(4 bytes @ 0xE0002010) -- CPU_WriteMem(4 bytes @ 0xE0002014) -- CPU_WriteMem(4 bytes @ 0xE0002018) -- CPU_WriteMem(4 bytes @ 0xE000201C) -- CPU_WriteMem(4 bytes @ 0xE0001004) (0007ms, 0683ms total)
T1D0C 002:093 JLINK_IsHalted()  returns TRUE (0005ms, 0688ms total)
T1D0C 002:098 JLINK_Halt()  returns 0x00 (0000ms, 0683ms total)
T1D0C 002:098 JLINK_IsHalted()  returns TRUE (0000ms, 0683ms total)
T1D0C 002:098 JLINK_IsHalted()  returns TRUE (0000ms, 0683ms total)
T1D0C 002:098 JLINK_IsHalted()  returns TRUE (0000ms, 0683ms total)
T1D0C 002:098 JLINK_ReadReg(R15 (PC))  returns 0x0800183C (0000ms, 0683ms total)
T1D0C 002:098 JLINK_ReadReg(XPSR)  returns 0x61000000 (0000ms, 0683ms total)
T1D0C 002:098 JLINK_ClrBPEx(BPHandle = 0x00000001)  returns 0x00 (0000ms, 0683ms total)
T1D0C 002:098 JLINK_ReadMemU32(0xE000ED30, 0x0001 Items, ...) -- CPU_ReadMem(4 bytes @ 0xE000ED30) - Data: 03 00 00 00  returns 0x01 (0001ms, 0684ms total)
T1D0C 002:099 JLINK_ReadMemU32(0xE0001028, 0x0001 Items, ...) -- CPU_ReadMem(4 bytes @ 0xE0001028) - Data: 00 00 00 00  returns 0x01 (0001ms, 0685ms total)
T1D0C 002:100 JLINK_ReadMemU32(0xE0001038, 0x0001 Items, ...) -- CPU_ReadMem(4 bytes @ 0xE0001038) - Data: 00 02 00 00  returns 0x01 (0001ms, 0686ms total)
T1D0C 002:101 JLINK_ReadMemU32(0xE0001048, 0x0001 Items, ...) -- CPU_ReadMem(4 bytes @ 0xE0001048) - Data: 00 00 00 00  returns 0x01 (0002ms, 0688ms total)
T1D0C 002:103 JLINK_ReadMemU32(0xE0001058, 0x0001 Items, ...) -- CPU_ReadMem(4 bytes @ 0xE0001058) - Data: 00 00 00 00  returns 0x01 (0001ms, 0689ms total)
T1D0C 002:104 JLINK_ReadReg(R0)  returns 0x0800183D (0000ms, 0689ms total)
T1D0C 002:104 JLINK_ReadReg(R1)  returns 0x20000668 (0000ms, 0689ms total)
T1D0C 002:104 JLINK_ReadReg(R2)  returns 0x00000000 (0000ms, 0689ms total)
T1D0C 002:104 JLINK_ReadReg(R3)  returns 0x0800171D (0000ms, 0689ms total)
T1D0C 002:104 JLINK_ReadReg(R4)  returns 0x080018C8 (0000ms, 0689ms total)
T1D0C 002:104 JLINK_ReadReg(R5)  returns 0x080018C8 (0000ms, 0689ms total)
T1D0C 002:104 JLINK_ReadReg(R6)  returns 0x00000000 (0000ms, 0689ms total)
T1D0C 002:104 JLINK_ReadReg(R7)  returns 0x00000000 (0000ms, 0689ms total)
T1D0C 002:104 JLINK_ReadReg(R8)  returns 0x00000000 (0000ms, 0689ms total)
T1D0C 002:104 JLINK_ReadReg(R9)  returns 0x20000160 (0000ms, 0689ms total)
T1D0C 002:104 JLINK_ReadReg(R10)  returns 0x00000000 (0000ms, 0689ms total)
T1D0C 002:104 JLINK_ReadReg(R11)  returns 0x00000000 (0000ms, 0689ms total)
T1D0C 002:104 JLINK_ReadReg(R12)  returns 0x00000800 (0000ms, 0689ms total)
T1D0C 002:104 JLINK_ReadReg(R13 (SP))  returns 0x20000668 (0000ms, 0689ms total)
T1D0C 002:104 JLINK_ReadReg(R14)  returns 0x08000185 (0000ms, 0689ms total)
T1D0C 002:104 JLINK_ReadReg(R15 (PC))  returns 0x0800183C (0000ms, 0689ms total)
T1D0C 002:104 JLINK_ReadReg(XPSR)  returns 0x61000000 (0000ms, 0689ms total)
T1D0C 002:104 JLINK_ReadReg(MSP)  returns 0x20000668 (0000ms, 0689ms total)
T1D0C 002:104 JLINK_ReadReg(PSP)  returns 0x20001000 (0000ms, 0689ms total)
T1D0C 002:104 JLINK_ReadReg(CFBP)  returns 0x00000000 (0000ms, 0689ms total)
T0460 002:105 JLINK_ReadMem (0x20000088, 0x0014 Bytes, ...) -- CPU_ReadMem(20 bytes @ 0x20000088) - Data: 00 00 00 00 00 00 00 00 00 00 00 00 00 00 00 00 ...  returns 0x00 (0001ms, 0690ms total)
T0460 002:106 JLINK_ReadMem (0x20000004, 0x0001 Bytes, ...) -- CPU_ReadMem(1 bytes @ 0x20000004) - Data: 00  returns 0x00 (0001ms, 0691ms total)
T0460 002:107 JLINK_ReadMem (0x20000028, 0x0001 Bytes, ...) -- CPU_ReadMem(1 bytes @ 0x20000028) - Data: 00  returns 0x00 (0001ms, 0692ms total)
T0460 002:108 JLINK_ReadMem (0x20000029, 0x0001 Bytes, ...) -- CPU_ReadMem(1 bytes @ 0x20000029) - Data: 00  returns 0x00 (0001ms, 0693ms total)
T0460 002:109 JLINK_ReadMem (0x20000005, 0x0001 Bytes, ...) -- CPU_ReadMem(1 bytes @ 0x20000005) - Data: 00  returns 0x00 (0001ms, 0694ms total)
T0460 002:110 JLINK_ReadMem (0x20000164, 0x0020 Bytes, ...) -- CPU_ReadMem(32 bytes @ 0x20000164) - Data: 00 00 00 00 00 00 00 00 00 00 00 00 00 00 00 00 ...  returns 0x00 (0001ms, 0695ms total)
T0460 002:111 JLINK_ReadMem (0x40013800, 0x0018 Bytes, ...) -- CPU_ReadMem(24 bytes @ 0x40013800) - Data: 00 00 00 00 00 00 00 00 00 00 00 00 00 00 00 00 ...  returns 0x00 (0002ms, 0697ms total)
T0460 002:113 JLINK_ReadMem (0x40013818, 0x0004 Bytes, ...) -- CPU_ReadMem(4 bytes @ 0x40013818) - Data: 00 00 00 00  returns 0x00 (0001ms, 0698ms total)
T0460 002:114 JLINK_ReadMem (0x40023000, 0x0004 Bytes, ...) -- CPU_ReadMem(4 bytes @ 0x40023000) - Data: 00 00 00 00  returns 0x00 (0001ms, 0699ms total)
T0460 002:115 JLINK_ReadMem (0x40023004, 0x0004 Bytes, ...) -- CPU_ReadMem(4 bytes @ 0x40023004) - Data: 00 00 00 00  returns 0x00 (0001ms, 0700ms total)
T0460 002:116 JLINK_ReadMem (0x40010C00, 0x000C Bytes, ...) -- CPU_ReadMem(12 bytes @ 0x40010C00) - Data: 44 44 48 44 44 44 44 44 00 00 00 00  returns 0x00 (0001ms, 0701ms total)
T0460 002:117 JLINK_ReadMem (0x40010C0C, 0x0004 Bytes, ...) -- CPU_ReadMem(4 bytes @ 0x40010C0C) - Data: 10 00 00 00  returns 0x00 (0001ms, 0702ms total)
T0460 002:118 JLINK_ReadMem (0x40010C18, 0x0004 Bytes, ...) -- CPU_ReadMem(4 bytes @ 0x40010C18) - Data: 00 00 00 00  returns 0x00 (0001ms, 0703ms total)
T0460 002:119 JLINK_ReadMem (0x40010800, 0x000C Bytes, ...) -- CPU_ReadMem(12 bytes @ 0x40010800) - Data: 44 44 44 44 44 44 84 88 00 00 00 00  returns 0x00 (0001ms, 0704ms total)
T0460 002:120 JLINK_ReadMem (0x4001080C, 0x0004 Bytes, ...) -- CPU_ReadMem(4 bytes @ 0x4001080C) - Data: 00 A0 00 00  returns 0x00 (0001ms, 0705ms total)
T0460 002:121 JLINK_ReadMem (0x40010818, 0x0004 Bytes, ...) -- CPU_ReadMem(4 bytes @ 0x40010818) - Data: 00 00 00 00  returns 0x00 (0001ms, 0706ms total)
T0460 002:122 JLINK_ReadMem (0x0800173C, 0x003C Bytes, ...) -- CPU_ReadMem(128 bytes @ 0x08001700) -- Updating DA cache (128 bytes @ 0x08001700) -- Read from DA cache (60 bytes @ 0x0800173C) - Data: F7 D1 70 47 00 21 06 E0 0A 21 00 BF 0A 00 A1 F1 ...  returns 0x00 (0003ms, 0709ms total)
T0460 002:125 JLINK_ReadMem (0x08001778, 0x003C Bytes, ...) -- CPU_ReadMem(64 bytes @ 0x08001780) -- Updating DA cache (64 bytes @ 0x08001780) -- Read from DA cache (60 bytes @ 0x08001778) - Data: 01 20 0E 49 C1 F8 B8 01 C0 20 00 F0 3B F8 00 24 ...  returns 0x00 (0002ms, 0711ms total)
T0460 002:127 JLINK_ReadMem (0x080017B8, 0x003C Bytes, ...) -- CPU_ReadMem(64 bytes @ 0x080017C0) -- Updating DA cache (64 bytes @ 0x080017C0) -- Read from DA cache (60 bytes @ 0x080017B8) - Data: 30 B5 05 46 0C 46 01 20 0C 49 08 60 0C 49 C1 F8 ...  returns 0x00 (0002ms, 0713ms total)
T0460 002:129 JLINK_ReadMem (0x080017F4, 0x000C Bytes, ...) -- Read from DA cache (12 bytes @ 0x080017F4) - Data: B4 81 21 42 00 80 21 42 00 22 0E 4B  returns 0x00 (0000ms, 0713ms total)
T0460 002:129 JLINK_ReadMem (0x08001800, 0x0030 Bytes, ...) -- CPU_ReadMem(64 bytes @ 0x08001800) -- Updating DA cache (64 bytes @ 0x08001800) -- Read from DA cache (48 bytes @ 0x08001800) - Data: 1A 60 00 21 15 E0 00 22 0B 4B 1B 1D 1A 60 00 F0 ...  returns 0x00 (0002ms, 0715ms total)
T0460 002:131 JLINK_ReadMem (0x08001830, 0x003C Bytes, ...) -- CPU_ReadMem(64 bytes @ 0x08001840) -- Updating DA cache (64 bytes @ 0x08001840) -- Read from DA cache (60 bytes @ 0x08001830) - Data: 49 1C 08 29 E7 D3 70 47 B8 81 21 42 FF F7 48 FD ...  returns 0x00 (0002ms, 0717ms total)
T0460 002:133 JLINK_ReadMem (0x0800186C, 0x003C Bytes, ...) -- CPU_ReadMem(64 bytes @ 0x08001880) -- Updating DA cache (64 bytes @ 0x08001880) -- Read from DA cache (60 bytes @ 0x0800186C) - Data: 13 E0 45 F2 AA 51 0C 48 FF F7 46 FF 09 48 00 78 ...  returns 0x00 (0002ms, 0719ms total)
T0460 035:803 JLINK_ReadMem (0x40013000, 0x0020 Bytes, ...) -- CPU_ReadMem(32 bytes @ 0x40013000) - Data: 00 00 00 00 00 00 00 00 00 00 00 00 00 00 00 00 ...  returns 0x00 (0001ms, 0720ms total)
T0460 035:804 JLINK_ReadMem (0x40013020, 0x0004 Bytes, ...) -- CPU_ReadMem(4 bytes @ 0x40013020) - Data: 00 00 00 00  returns 0x00 (0001ms, 0721ms total)
T1E08 035:804 
  ***** Error: Connection to emulator lost! (9517ms, 10238ms total)
T0460 11782:593 JLINK_Close() (0000ms, 0721ms total)
T0460 11782:593  (0000ms, 0721ms total)
T0460 11782:593 Closed (0000ms, 0721ms total)
